
T139F8 000:137 SEGGER J-Link V6.10i Log File (0001ms, 0037ms total)
T139F8 000:137 DLL Compiled: Oct 25 2016 19:31:51 (0001ms, 0037ms total)
T139F8 000:137 Logging started @ 2016-12-06 13:14 (0001ms, 0037ms total)
T139F8 000:138 JLINK_SetWarnOutHandler(...) (0000ms, 0037ms total)
T139F8 000:138 JLINK_OpenEx(...)
Firmware: J-Link ARM V8 compiled Nov 28 2014 13:44:46
Hardware: V8.00
Feature(s): RDI,FlashDL,FlashBP,JFlash,GDBFullWEBSRV Webserver running on local port 19080 (0022ms, 0059ms total)
T139F8 000:138   returns O.K. (0022ms, 0059ms total)
T139F8 000:160 JLINK_SetErrorOutHandler(...) (0000ms, 0059ms total)
T139F8 000:160 JLINK_ExecCommand("ProjectFile = "E:\TM4C-gonghao\project\JLinkSettings.ini"", ...).   returns 0x00 (0139ms, 0198ms total)
T139F8 000:299 JLINK_ExecCommand("Device = TM4C123BH6PGE", ...). Device "TM4C123BH6PGE" selected.  returns 0x00 (0000ms, 0198ms total)
T139F8 000:299 JLINK_ExecCommand("DisableConnectionTimeout", ...).   returns 0x01 (0000ms, 0198ms total)
T139F8 000:299 JLINK_GetHardwareVersion()  returns 0x13880 (0000ms, 0198ms total)
T139F8 000:299 JLINK_GetDLLVersion()  returns 61009 (0000ms, 0198ms total)
T139F8 000:299 JLINK_GetFirmwareString(...) (0000ms, 0198ms total)
T139F8 000:299 JLINK_GetDLLVersion()  returns 61009 (0000ms, 0198ms total)
T139F8 000:299 JLINK_GetCompileDateTime() (0000ms, 0198ms total)
T139F8 000:299 JLINK_GetFirmwareString(...) (0000ms, 0198ms total)
T139F8 000:299 JLINK_GetHardwareVersion()  returns 0x13880 (0000ms, 0198ms total)
T139F8 000:299 JLINK_TIF_Select(JLINKARM_TIF_SWD)  returns 0x00 (0002ms, 0200ms total)
T139F8 000:301 JLINK_SetSpeed(5000) (0001ms, 0201ms total)
T139F8 000:302 JLINK_GetId() >0x108 TIF>Found SWD-DP with ID 0x2BA01477 >0x0D TIF> >0x28 TIF> >0x0D TIF> >0x28 TIF> >0x0D TIF> >0x28 TIF> >0x0D TIF> >0x28 TIF> >0x0D TIF> >0x21 TIF> >0x0D TIF> >0x28 TIF> >0x0D TIF> >0x28 TIF> >0x0D TIF> >0x21 TIF> >0x0D TIF> >0x21 TIF> >0x0D TIF> >0x21 TIF>AP-IDR: 0x24770011, Type: AHB-AP >0x0D TIF> >0x28 TIF> >0x0D TIF> >0x28 TIF> >0x0D TIF> >0x28 TIF> >0x0D TIF> >0x21 TIF> >0x0D TIF> >0x21 TIF> >0x0D TIF> >0x28 TIF> >0x0D TIF> >0x21 TIF> >0x0D TIF> >0x21 TIF>
Found Cortex-M4 r0p1, Little endian. -- CPU_ReadMem(4 bytes @ 0xE000EDF0) -- CPU_WriteMem(4 bytes @ 0xE000EDF0) -- CPU_ReadMem(4 bytes @ 0xE0002000)FPUnit: 6 code (BP) slots and 2 literal slots -- CPU_ReadMem(4 bytes @ 0xE000EDFC) -- CPU_WriteMem(4 bytes @ 0xE000EDFC) -- CPU_ReadMem(4 bytes @ 0xE0001000) -- CPU_WriteMem(4 bytes @ 0xE0001000) -- CPU_ReadMem(4 bytes @ 0xE000ED88) -- CPU_WriteMem(4 bytes @ 0xE000ED88) -- CPU_ReadMem(4 bytes @ 0xE000ED88) -- CPU_WriteMem(4 bytes @ 0xE000ED88)
CoreSight components:ROMTbl 0 @ E00FF000 -- CPU_ReadMem(16 bytes @ 0xE00FF000) -- CPU_ReadMem(16 bytes @ 0xE000EFF0) -- CPU_ReadMem(16 bytes @ 0xE000EFE0)ROMTbl 0 [0]: FFF0F000, CID: B105E00D, PID: 000BB00C SCS -- CPU_ReadMem(16 bytes @ 0xE0001FF0) -- CPU_ReadMem(16 bytes @ 0xE0001FE0)ROMTbl 0 [1]: FFF02000, CID: B105E00D, PID: 003BB002 DWT -- CPU_ReadMem(16 bytes @ 0xE0002FF0) -- CPU_ReadMem(16 bytes @ 0xE0002FE0)ROMTbl 0 [2]: FFF03000, CID: B105E00D, PID: 002BB003 FPB
 -- CPU_ReadMem(16 bytes @ 0xE0000FF0) -- CPU_ReadMem(16 bytes @ 0xE0000FE0)ROMTbl 0 [3]: FFF01000, CID: B105E00D, PID: 003BB001 ITM -- CPU_ReadMem(16 bytes @ 0xE00FF010) -- CPU_ReadMem(16 bytes @ 0xE0040FF0) -- CPU_ReadMem(16 bytes @ 0xE0040FE0)ROMTbl 0 [4]: FFF41000, CID: B105900D, PID: 000BB9A1 TPIU -- CPU_ReadMem(16 bytes @ 0xE0041FF0) -- CPU_ReadMem(16 bytes @ 0xE0041FE0)ROMTbl 0 [5]: FFF42000, CID: B105900D, PID: 000BB925 ETM -- CPU is running -- CPU_ReadMem(4 bytes @ 0x400FE0F0) >0x0D TIF>
 >0x21 TIF>  returns 0x2BA01477 (0034ms, 0235ms total)
T139F8 000:336 JLINK_GetDLLVersion()  returns 61009 (0000ms, 0235ms total)
T139F8 000:336 JLINK_CORE_GetFound()  returns 0xE0000FF (0000ms, 0235ms total)
T139F8 000:336 JLINK_GetDebugInfo(0x100) -- Value=0xE00FF000  returns 0x00 (0000ms, 0235ms total)
T139F8 000:336 JLINK_GetDebugInfo(0x100) -- Value=0xE00FF000  returns 0x00 (0000ms, 0235ms total)
T139F8 000:336 JLINK_GetDebugInfo(0x101) -- Value=0xE0041000  returns 0x00 (0000ms, 0235ms total)
T139F8 000:336 JLINK_GetDebugInfo(0x102) -- Value=0x00000000  returns 0x00 (0000ms, 0235ms total)
T139F8 000:336 JLINK_GetDebugInfo(0x103) -- Value=0xE0040000  returns 0x00 (0000ms, 0235ms total)
T139F8 000:336 JLINK_GetDebugInfo(0x104) -- Value=0xE0000000  returns 0x00 (0000ms, 0235ms total)
T139F8 000:336 JLINK_GetDebugInfo(0x105) -- Value=0xE0001000  returns 0x00 (0000ms, 0235ms total)
T139F8 000:336 JLINK_GetDebugInfo(0x106) -- Value=0xE0002000  returns 0x00 (0000ms, 0235ms total)
T139F8 000:336 JLINK_GetDebugInfo(0x107) -- Value=0xE000E000  returns 0x00 (0000ms, 0235ms total)
T139F8 000:336 JLINK_GetDebugInfo(0x10C) -- Value=0xE000EDF0  returns 0x00 (0000ms, 0235ms total)
T139F8 000:336 JLINK_ReadMemU32(0xE000EF40, 0x0001 Items, ...) -- CPU is running -- CPU_ReadMem(4 bytes @ 0xE000EF40) - Data: 21 00 11 10  returns 0x01 (0001ms, 0236ms total)
T139F8 000:337 JLINK_ReadMemU32(0xE000EF44, 0x0001 Items, ...) -- CPU is running -- CPU_ReadMem(4 bytes @ 0xE000EF44) - Data: 11 00 00 11  returns 0x01 (0000ms, 0236ms total)
T139F8 000:337 JLINK_ReadMemU32(0xE000ED00, 0x0001 Items, ...) -- CPU is running -- CPU_ReadMem(4 bytes @ 0xE000ED00) - Data: 41 C2 0F 41  returns 0x01 (0001ms, 0237ms total)
T139F8 000:338 JLINK_SetResetType(JLINKARM_RESET_TYPE_NORMAL)  returns JLINKARM_RESET_TYPE_NORMAL (0000ms, 0237ms total)
T139F8 000:338 JLINK_Reset() -- CPU is running -- CPU_WriteMem(4 bytes @ 0xE000EDF0) -- CPU is running -- CPU_WriteMem(4 bytes @ 0xE000EDFC) >0x35 TIF> -- CPU is running -- CPU_WriteMem(4 bytes @ 0xE000ED0C) -- CPU is running -- CPU_ReadMem(4 bytes @ 0xE000EDF0) -- CPU is running -- CPU_ReadMem(4 bytes @ 0xE000EDF0) -- CPU is running -- CPU_WriteMem(4 bytes @ 0xE000EDF0) -- CPU is running -- CPU_WriteMem(4 bytes @ 0xE000EDFC) -- CPU is running -- CPU_ReadMem(4 bytes @ 0xE000EDF0)
 -- CPU_ReadMem(4 bytes @ 0x400FE0F0) -- CPU_WriteMem(4 bytes @ 0xE0002000) -- CPU_ReadMem(4 bytes @ 0xE000EDFC) -- CPU_ReadMem(4 bytes @ 0xE0001000) (0020ms, 0257ms total)
T139F8 000:358 JLINK_ReadReg(R15 (PC))  returns 0x0000026C (0000ms, 0257ms total)
T139F8 000:358 JLINK_ReadReg(XPSR)  returns 0x01000000 (0000ms, 0257ms total)
T139F8 000:358 JLINK_Halt()  returns 0x00 (0000ms, 0257ms total)
T139F8 000:358 JLINK_IsHalted()  returns TRUE (0000ms, 0257ms total)
T139F8 000:358 JLINK_ReadMemU32(0xE000EDF0, 0x0001 Items, ...) -- CPU_ReadMem(4 bytes @ 0xE000EDF0) - Data: 03 00 03 00  returns 0x01 (0001ms, 0258ms total)
T139F8 000:359 JLINK_WriteU32(0xE000EDF0, 0xA05F0003) -- CPU_WriteMem(4 bytes @ 0xE000EDF0)  returns 0x00 (0001ms, 0259ms total)
T139F8 000:360 JLINK_WriteU32(0xE000EDFC, 0x01000000) -- CPU_WriteMem(4 bytes @ 0xE000EDFC)  returns 0x00 (0001ms, 0260ms total)
T139F8 000:361 JLINK_GetHWStatus(...)  returns 0x00 (0000ms, 0260ms total)
T139F8 000:361 JLINK_GetNumBPUnits(Type = 0xFFFFFF00)  returns 0x06 (0000ms, 0260ms total)
T139F8 000:361 JLINK_GetNumBPUnits(Type = 0xF0)  returns 0x2000 (0000ms, 0260ms total)
T139F8 000:361 JLINK_GetNumWPUnits()  returns 0x04 (0000ms, 0260ms total)
T139F8 000:361 JLINK_GetSpeed()  returns 0xFA0 (0000ms, 0260ms total)
T139F8 000:361 JLINK_ReadMemU32(0xE000E004, 0x0001 Items, ...) -- CPU_ReadMem(4 bytes @ 0xE000E004) - Data: 04 00 00 00  returns 0x01 (0001ms, 0261ms total)
T139F8 000:362 JLINK_ReadMemU32(0xE000E004, 0x0001 Items, ...) -- CPU_ReadMem(4 bytes @ 0xE000E004) - Data: 04 00 00 00  returns 0x01 (0001ms, 0262ms total)
T139F8 000:363 JLINK_WriteMem(0xE0001000, 0x001C Bytes, ...) - Data: 01 00 00 00 00 00 00 00 00 00 00 00 00 00 00 00 ... -- CPU_WriteMem(28 bytes @ 0xE0001000)  returns 0x1C (0001ms, 0263ms total)
T139F8 000:364 JLINK_ReadMem (0xE0001000, 0x001C Bytes, ...) -- CPU_ReadMem(28 bytes @ 0xE0001000) - Data: 01 00 00 40 00 00 00 00 00 00 00 00 00 00 00 00 ...  returns 0x00 (0001ms, 0264ms total)
T139F8 000:365 JLINK_ReadReg(R15 (PC))  returns 0x0000026C (0000ms, 0264ms total)
T139F8 000:365 JLINK_ReadReg(XPSR)  returns 0x01000000 (0000ms, 0264ms total)
T139F8 000:491 JLINK_SetResetType(JLINKARM_RESET_TYPE_NORMAL)  returns JLINKARM_RESET_TYPE_NORMAL (0000ms, 0264ms total)
T139F8 000:491 JLINK_Reset() -- CPU_WriteMem(4 bytes @ 0xE000EDF0) -- CPU_WriteMem(4 bytes @ 0xE000EDFC) >0x35 TIF> -- CPU_WriteMem(4 bytes @ 0xE000ED0C) -- CPU_ReadMem(4 bytes @ 0xE000EDF0) -- CPU_ReadMem(4 bytes @ 0xE000EDF0) -- CPU_WriteMem(4 bytes @ 0xE000EDF0) -- CPU_WriteMem(4 bytes @ 0xE000EDFC) -- CPU is running -- CPU_ReadMem(4 bytes @ 0xE000EDF0) -- CPU_ReadMem(4 bytes @ 0x400FE0F0) -- CPU_WriteMem(4 bytes @ 0xE0002000) -- CPU_ReadMem(4 bytes @ 0xE000EDFC) -- CPU_ReadMem(4 bytes @ 0xE0001000)
 (0021ms, 0285ms total)
T139F8 000:512 JLINK_ReadReg(R15 (PC))  returns 0x0000026C (0000ms, 0285ms total)
T139F8 000:512 JLINK_ReadReg(XPSR)  returns 0x01000000 (0000ms, 0285ms total)
T139F8 000:518 JLINK_ReadMem (0x0000026A, 0x0002 Bytes, ...) -- CPU_ReadMem(64 bytes @ 0x00000240) -- Updating C cache (64 bytes @ 0x00000240) -- Read from C cache (2 bytes @ 0x0000026A) - Data: 00 00  returns 0x00 (0002ms, 0287ms total)
T139F8 000:520 JLINK_ReadMem (0x0000026C, 0x003C Bytes, ...) -- CPU_ReadMem(64 bytes @ 0x00000280) -- Updating C cache (64 bytes @ 0x00000280) -- Read from C cache (60 bytes @ 0x0000026C) - Data: 4E F6 88 50 CE F2 00 00 01 68 41 F4 70 01 01 60 ...  returns 0x00 (0001ms, 0288ms total)
T139F8 000:666 JLINK_ReadMem (0x400043FC, 0x0004 Bytes, ...) -- CPU_ReadMem(4 bytes @ 0x400043FC) - Data: AA AA AA AA  returns 0x01 (0001ms, 0289ms total)
T139F8 000:667 JLINK_ReadMem (0x40004400, 0x0018 Bytes, ...) -- CPU_ReadMem(24 bytes @ 0x40004400) - Data: AA AA AA AA AA AA AA AA AA AA AA AA AA AA AA AA ...  returns 0x01 (0001ms, 0290ms total)
T139F8 000:668 JLINK_ReadMem (0x400043FC, 0x0004 Bytes, ...) -- CPU_ReadMem(4 bytes @ 0x400043FC) - Data: AA AA AA AA  returns 0x01 (0001ms, 0291ms total)
T139F8 000:669 JLINK_ReadMem (0x40004400, 0x0004 Bytes, ...) -- CPU_ReadMem(4 bytes @ 0x40004400) - Data: AA AA AA AA  returns 0x01 (0000ms, 0291ms total)
T139F8 000:669 JLINK_ReadMem (0x40004404, 0x0004 Bytes, ...) -- CPU_ReadMem(4 bytes @ 0x40004404) - Data: AA AA AA AA  returns 0x01 (0001ms, 0292ms total)
T139F8 000:670 JLINK_ReadMem (0x40004408, 0x0004 Bytes, ...) -- CPU_ReadMem(4 bytes @ 0x40004408) - Data: AA AA AA AA  returns 0x01 (0001ms, 0293ms total)
T139F8 000:671 JLINK_ReadMem (0x4000440C, 0x0004 Bytes, ...) -- CPU_ReadMem(4 bytes @ 0x4000440C) - Data: AA AA AA AA  returns 0x01 (0001ms, 0294ms total)
T139F8 000:672 JLINK_ReadMem (0x40004410, 0x0004 Bytes, ...) -- CPU_ReadMem(4 bytes @ 0x40004410) - Data: AA AA AA AA  returns 0x01 (0001ms, 0295ms total)
T139F8 000:673 JLINK_ReadMem (0x40004414, 0x0004 Bytes, ...) -- CPU_ReadMem(4 bytes @ 0x40004414) - Data: AA AA AA AA  returns 0x01 (0001ms, 0296ms total)
T139F8 000:674 JLINK_ReadMem (0x40004418, 0x0004 Bytes, ...) -- CPU_ReadMem(4 bytes @ 0x40004418) - Data: AA AA AA AA  returns 0x01 (0000ms, 0296ms total)
T139F8 000:675 JLINK_ReadMem (0x40004418, 0x0004 Bytes, ...) -- CPU_ReadMem(4 bytes @ 0x40004418) - Data: AA AA AA AA  returns 0x01 (0000ms, 0297ms total)
T139F8 000:675 JLINK_ReadMem (0x40004420, 0x0004 Bytes, ...) -- CPU_ReadMem(4 bytes @ 0x40004420) - Data: AA AA AA AA  returns 0x01 (0001ms, 0298ms total)
T139F8 000:676 JLINK_ReadMem (0x40004420, 0x0004 Bytes, ...) -- CPU_ReadMem(4 bytes @ 0x40004420) - Data: AA AA AA AA  returns 0x01 (0001ms, 0299ms total)
T139F8 000:677 JLINK_ReadMem (0x40004500, 0x0038 Bytes, ...) -- CPU_ReadMem(56 bytes @ 0x40004500) - Data: AA AA AA AA AA AA AA AA AA AA AA AA AA AA AA AA ...  returns 0x01 (0001ms, 0300ms total)
T139F8 000:678 JLINK_ReadMem (0x40004500, 0x0004 Bytes, ...) -- CPU_ReadMem(4 bytes @ 0x40004500) - Data: AA AA AA AA  returns 0x01 (0001ms, 0301ms total)
T139F8 000:679 JLINK_ReadMem (0x40004504, 0x0004 Bytes, ...) -- CPU_ReadMem(4 bytes @ 0x40004504) - Data: AA AA AA AA  returns 0x01 (0001ms, 0302ms total)
T139F8 000:680 JLINK_ReadMem (0x40004508, 0x0004 Bytes, ...) -- CPU_ReadMem(4 bytes @ 0x40004508) - Data: AA AA AA AA  returns 0x01 (0001ms, 0303ms total)
T139F8 000:681 JLINK_ReadMem (0x4000450C, 0x0004 Bytes, ...) -- CPU_ReadMem(4 bytes @ 0x4000450C) - Data: AA AA AA AA  returns 0x01 (0000ms, 0303ms total)
T139F8 000:681 JLINK_ReadMem (0x40004510, 0x0004 Bytes, ...) -- CPU_ReadMem(4 bytes @ 0x40004510) - Data: AA AA AA AA  returns 0x01 (0001ms, 0304ms total)
T139F8 000:682 JLINK_ReadMem (0x40004514, 0x0004 Bytes, ...) -- CPU_ReadMem(4 bytes @ 0x40004514) - Data: AA AA AA AA  returns 0x01 (0001ms, 0305ms total)
T139F8 000:683 JLINK_ReadMem (0x40004518, 0x0004 Bytes, ...) -- CPU_ReadMem(4 bytes @ 0x40004518) - Data: AA AA AA AA  returns 0x01 (0001ms, 0306ms total)
T139F8 000:684 JLINK_ReadMem (0x4000451C, 0x0004 Bytes, ...) -- CPU_ReadMem(4 bytes @ 0x4000451C) - Data: AA AA AA AA  returns 0x01 (0001ms, 0307ms total)
T139F8 000:685 JLINK_ReadMem (0x40004520, 0x0004 Bytes, ...) -- CPU_ReadMem(4 bytes @ 0x40004520) - Data: AA AA AA AA  returns 0x01 (0001ms, 0308ms total)
T139F8 000:686 JLINK_ReadMem (0x40004524, 0x0004 Bytes, ...) -- CPU_ReadMem(4 bytes @ 0x40004524) - Data: AA AA AA AA  returns 0x01 (0001ms, 0309ms total)
T139F8 000:687 JLINK_ReadMem (0x40004528, 0x0004 Bytes, ...) -- CPU_ReadMem(4 bytes @ 0x40004528) - Data: AA AA AA AA  returns 0x01 (0001ms, 0310ms total)
T139F8 000:688 JLINK_ReadMem (0x4000452C, 0x0004 Bytes, ...) -- CPU_ReadMem(4 bytes @ 0x4000452C) - Data: AA AA AA AA  returns 0x01 (0001ms, 0311ms total)
T139F8 000:689 JLINK_ReadMem (0x40004530, 0x0004 Bytes, ...) -- CPU_ReadMem(4 bytes @ 0x40004530) - Data: AA AA AA AA  returns 0x01 (0001ms, 0312ms total)
T139F8 000:690 JLINK_ReadMem (0x40004534, 0x0004 Bytes, ...) -- CPU_ReadMem(4 bytes @ 0x40004534) - Data: AA AA AA AA  returns 0x01 (0000ms, 0312ms total)
T139F8 000:690 JLINK_ReadMem (0x40004538, 0x0004 Bytes, ...) -- CPU_ReadMem(4 bytes @ 0x40004538) - Data: AA AA AA AA  returns 0x01 (0001ms, 0313ms total)
T139F8 000:691 JLINK_ReadMem (0x40004538, 0x0004 Bytes, ...) -- CPU_ReadMem(4 bytes @ 0x40004538) - Data: AA AA AA AA  returns 0x01 (0001ms, 0314ms total)
T139F8 000:733 JLINK_ReadMem (0x400053FC, 0x0004 Bytes, ...) -- CPU_ReadMem(4 bytes @ 0x400053FC) - Data: AA AA AA AA  returns 0x01 (0000ms, 0314ms total)
T139F8 000:733 JLINK_ReadMem (0x40005400, 0x0018 Bytes, ...) -- CPU_ReadMem(24 bytes @ 0x40005400) - Data: AA AA AA AA AA AA AA AA AA AA AA AA AA AA AA AA ...  returns 0x01 (0001ms, 0315ms total)
T139F8 000:734 JLINK_ReadMem (0x400053FC, 0x0004 Bytes, ...) -- CPU_ReadMem(4 bytes @ 0x400053FC) - Data: AA AA AA AA  returns 0x01 (0001ms, 0316ms total)
T139F8 000:735 JLINK_ReadMem (0x40005400, 0x0004 Bytes, ...) -- CPU_ReadMem(4 bytes @ 0x40005400) - Data: AA AA AA AA  returns 0x01 (0001ms, 0317ms total)
T139F8 000:736 JLINK_ReadMem (0x40005404, 0x0004 Bytes, ...) -- CPU_ReadMem(4 bytes @ 0x40005404) - Data: AA AA AA AA  returns 0x01 (0001ms, 0318ms total)
T139F8 000:737 JLINK_ReadMem (0x40005408, 0x0004 Bytes, ...) -- CPU_ReadMem(4 bytes @ 0x40005408) - Data: AA AA AA AA  returns 0x01 (0000ms, 0318ms total)
T139F8 000:737 JLINK_ReadMem (0x4000540C, 0x0004 Bytes, ...) -- CPU_ReadMem(4 bytes @ 0x4000540C) - Data: AA AA AA AA  returns 0x01 (0001ms, 0319ms total)
T139F8 000:738 JLINK_ReadMem (0x40005410, 0x0004 Bytes, ...) -- CPU_ReadMem(4 bytes @ 0x40005410) - Data: AA AA AA AA  returns 0x01 (0001ms, 0320ms total)
T139F8 000:739 JLINK_ReadMem (0x40005414, 0x0004 Bytes, ...) -- CPU_ReadMem(4 bytes @ 0x40005414) - Data: AA AA AA AA  returns 0x01 (0000ms, 0320ms total)
T139F8 000:739 JLINK_ReadMem (0x40005418, 0x0004 Bytes, ...) -- CPU_ReadMem(4 bytes @ 0x40005418) - Data: AA AA AA AA  returns 0x01 (0001ms, 0321ms total)
T139F8 000:740 JLINK_ReadMem (0x40005418, 0x0004 Bytes, ...) -- CPU_ReadMem(4 bytes @ 0x40005418) - Data: AA AA AA AA  returns 0x01 (0001ms, 0322ms total)
T139F8 000:741 JLINK_ReadMem (0x40005420, 0x0004 Bytes, ...) -- CPU_ReadMem(4 bytes @ 0x40005420) - Data: AA AA AA AA  returns 0x01 (0001ms, 0323ms total)
T139F8 000:742 JLINK_ReadMem (0x40005420, 0x0004 Bytes, ...) -- CPU_ReadMem(4 bytes @ 0x40005420) - Data: AA AA AA AA  returns 0x01 (0000ms, 0323ms total)
T139F8 000:742 JLINK_ReadMem (0x40005500, 0x0038 Bytes, ...) -- CPU_ReadMem(56 bytes @ 0x40005500) - Data: AA AA AA AA AA AA AA AA AA AA AA AA AA AA AA AA ...  returns 0x01 (0001ms, 0324ms total)
T139F8 000:743 JLINK_ReadMem (0x40005500, 0x0004 Bytes, ...) -- CPU_ReadMem(4 bytes @ 0x40005500) - Data: AA AA AA AA  returns 0x01 (0001ms, 0325ms total)
T139F8 000:744 JLINK_ReadMem (0x40005504, 0x0004 Bytes, ...) -- CPU_ReadMem(4 bytes @ 0x40005504) - Data: AA AA AA AA  returns 0x01 (0001ms, 0326ms total)
T139F8 000:745 JLINK_ReadMem (0x40005508, 0x0004 Bytes, ...) -- CPU_ReadMem(4 bytes @ 0x40005508) - Data: AA AA AA AA  returns 0x01 (0000ms, 0326ms total)
T139F8 000:745 JLINK_ReadMem (0x4000550C, 0x0004 Bytes, ...) -- CPU_ReadMem(4 bytes @ 0x4000550C) - Data: AA AA AA AA  returns 0x01 (0001ms, 0327ms total)
T139F8 000:746 JLINK_ReadMem (0x40005510, 0x0004 Bytes, ...) -- CPU_ReadMem(4 bytes @ 0x40005510) - Data: AA AA AA AA  returns 0x01 (0001ms, 0328ms total)
T139F8 000:747 JLINK_ReadMem (0x40005514, 0x0004 Bytes, ...) -- CPU_ReadMem(4 bytes @ 0x40005514) - Data: AA AA AA AA  returns 0x01 (0000ms, 0328ms total)
T139F8 000:747 JLINK_ReadMem (0x40005518, 0x0004 Bytes, ...) -- CPU_ReadMem(4 bytes @ 0x40005518) - Data: AA AA AA AA  returns 0x01 (0001ms, 0329ms total)
T139F8 000:748 JLINK_ReadMem (0x4000551C, 0x0004 Bytes, ...) -- CPU_ReadMem(4 bytes @ 0x4000551C) - Data: AA AA AA AA  returns 0x01 (0001ms, 0330ms total)
T139F8 000:749 JLINK_ReadMem (0x40005520, 0x0004 Bytes, ...) -- CPU_ReadMem(4 bytes @ 0x40005520) - Data: AA AA AA AA  returns 0x01 (0000ms, 0330ms total)
T139F8 000:749 JLINK_ReadMem (0x40005524, 0x0004 Bytes, ...) -- CPU_ReadMem(4 bytes @ 0x40005524) - Data: AA AA AA AA  returns 0x01 (0001ms, 0331ms total)
T139F8 000:750 JLINK_ReadMem (0x40005528, 0x0004 Bytes, ...) -- CPU_ReadMem(4 bytes @ 0x40005528) - Data: AA AA AA AA  returns 0x01 (0001ms, 0332ms total)
T139F8 000:751 JLINK_ReadMem (0x4000552C, 0x0004 Bytes, ...) -- CPU_ReadMem(4 bytes @ 0x4000552C) - Data: AA AA AA AA  returns 0x01 (0001ms, 0333ms total)
T139F8 000:752 JLINK_ReadMem (0x40005530, 0x0004 Bytes, ...) -- CPU_ReadMem(4 bytes @ 0x40005530) - Data: AA AA AA AA  returns 0x01 (0000ms, 0333ms total)
T139F8 000:752 JLINK_ReadMem (0x40005534, 0x0004 Bytes, ...) -- CPU_ReadMem(4 bytes @ 0x40005534) - Data: AA AA AA AA  returns 0x01 (0001ms, 0334ms total)
T139F8 000:753 JLINK_ReadMem (0x40005538, 0x0004 Bytes, ...) -- CPU_ReadMem(4 bytes @ 0x40005538) - Data: AA AA AA AA  returns 0x01 (0001ms, 0335ms total)
T139F8 000:754 JLINK_ReadMem (0x40005538, 0x0004 Bytes, ...) -- CPU_ReadMem(4 bytes @ 0x40005538) - Data: AA AA AA AA  returns 0x01 (0001ms, 0336ms total)
T139F8 000:790 JLINK_ReadMem (0x400063FC, 0x0004 Bytes, ...) -- CPU_ReadMem(4 bytes @ 0x400063FC) - Data: AA AA AA AA  returns 0x01 (0001ms, 0337ms total)
T139F8 000:791 JLINK_ReadMem (0x40006400, 0x0018 Bytes, ...) -- CPU_ReadMem(24 bytes @ 0x40006400) - Data: AA AA AA AA AA AA AA AA AA AA AA AA AA AA AA AA ...  returns 0x01 (0001ms, 0338ms total)
T139F8 000:792 JLINK_ReadMem (0x400063FC, 0x0004 Bytes, ...) -- CPU_ReadMem(4 bytes @ 0x400063FC) - Data: AA AA AA AA  returns 0x01 (0001ms, 0339ms total)
T139F8 000:793 JLINK_ReadMem (0x40006400, 0x0004 Bytes, ...) -- CPU_ReadMem(4 bytes @ 0x40006400) - Data: AA AA AA AA  returns 0x01 (0000ms, 0339ms total)
T139F8 000:794 JLINK_ReadMem (0x40006404, 0x0004 Bytes, ...) -- CPU_ReadMem(4 bytes @ 0x40006404) - Data: AA AA AA AA  returns 0x01 (0000ms, 0340ms total)
T139F8 000:794 JLINK_ReadMem (0x40006408, 0x0004 Bytes, ...) -- CPU_ReadMem(4 bytes @ 0x40006408) - Data: AA AA AA AA  returns 0x01 (0001ms, 0341ms total)
T139F8 000:795 JLINK_ReadMem (0x4000640C, 0x0004 Bytes, ...) -- CPU_ReadMem(4 bytes @ 0x4000640C) - Data: AA AA AA AA  returns 0x01 (0001ms, 0342ms total)
T139F8 000:796 JLINK_ReadMem (0x40006410, 0x0004 Bytes, ...) -- CPU_ReadMem(4 bytes @ 0x40006410) - Data: AA AA AA AA  returns 0x01 (0001ms, 0343ms total)
T139F8 000:797 JLINK_ReadMem (0x40006414, 0x0004 Bytes, ...) -- CPU_ReadMem(4 bytes @ 0x40006414) - Data: AA AA AA AA  returns 0x01 (0000ms, 0343ms total)
T139F8 000:797 JLINK_ReadMem (0x40006418, 0x0004 Bytes, ...) -- CPU_ReadMem(4 bytes @ 0x40006418) - Data: AA AA AA AA  returns 0x01 (0001ms, 0344ms total)
T139F8 000:798 JLINK_ReadMem (0x40006418, 0x0004 Bytes, ...) -- CPU_ReadMem(4 bytes @ 0x40006418) - Data: AA AA AA AA  returns 0x01 (0001ms, 0345ms total)
T139F8 000:799 JLINK_ReadMem (0x40006420, 0x0004 Bytes, ...) -- CPU_ReadMem(4 bytes @ 0x40006420) - Data: AA AA AA AA  returns 0x01 (0001ms, 0346ms total)
T139F8 000:800 JLINK_ReadMem (0x40006420, 0x0004 Bytes, ...) -- CPU_ReadMem(4 bytes @ 0x40006420) - Data: AA AA AA AA  returns 0x01 (0000ms, 0346ms total)
T139F8 000:800 JLINK_ReadMem (0x40006500, 0x0038 Bytes, ...) -- CPU_ReadMem(56 bytes @ 0x40006500) - Data: AA AA AA AA AA AA AA AA AA AA AA AA AA AA AA AA ...  returns 0x01 (0001ms, 0347ms total)
T139F8 000:801 JLINK_ReadMem (0x40006500, 0x0004 Bytes, ...) -- CPU_ReadMem(4 bytes @ 0x40006500) - Data: AA AA AA AA  returns 0x01 (0001ms, 0348ms total)
T139F8 000:802 JLINK_ReadMem (0x40006504, 0x0004 Bytes, ...) -- CPU_ReadMem(4 bytes @ 0x40006504) - Data: AA AA AA AA  returns 0x01 (0001ms, 0349ms total)
T139F8 000:803 JLINK_ReadMem (0x40006508, 0x0004 Bytes, ...) -- CPU_ReadMem(4 bytes @ 0x40006508) - Data: AA AA AA AA  returns 0x01 (0001ms, 0350ms total)
T139F8 000:804 JLINK_ReadMem (0x4000650C, 0x0004 Bytes, ...) -- CPU_ReadMem(4 bytes @ 0x4000650C) - Data: AA AA AA AA  returns 0x01 (0001ms, 0351ms total)
T139F8 000:805 JLINK_ReadMem (0x40006510, 0x0004 Bytes, ...) -- CPU_ReadMem(4 bytes @ 0x40006510) - Data: AA AA AA AA  returns 0x01 (0000ms, 0351ms total)
T139F8 000:805 JLINK_ReadMem (0x40006514, 0x0004 Bytes, ...) -- CPU_ReadMem(4 bytes @ 0x40006514) - Data: AA AA AA AA  returns 0x01 (0001ms, 0352ms total)
T139F8 000:806 JLINK_ReadMem (0x40006518, 0x0004 Bytes, ...) -- CPU_ReadMem(4 bytes @ 0x40006518) - Data: AA AA AA AA  returns 0x01 (0001ms, 0353ms total)
T139F8 000:807 JLINK_ReadMem (0x4000651C, 0x0004 Bytes, ...) -- CPU_ReadMem(4 bytes @ 0x4000651C) - Data: AA AA AA AA  returns 0x01 (0000ms, 0353ms total)
T139F8 000:808 JLINK_ReadMem (0x40006520, 0x0004 Bytes, ...) -- CPU_ReadMem(4 bytes @ 0x40006520) - Data: AA AA AA AA  returns 0x01 (0000ms, 0354ms total)
T139F8 000:808 JLINK_ReadMem (0x40006524, 0x0004 Bytes, ...) -- CPU_ReadMem(4 bytes @ 0x40006524) - Data: AA AA AA AA  returns 0x01 (0001ms, 0355ms total)
T139F8 000:809 JLINK_ReadMem (0x40006528, 0x0004 Bytes, ...) -- CPU_ReadMem(4 bytes @ 0x40006528) - Data: AA AA AA AA  returns 0x01 (0000ms, 0355ms total)
T139F8 000:810 JLINK_ReadMem (0x4000652C, 0x0004 Bytes, ...) -- CPU_ReadMem(4 bytes @ 0x4000652C) - Data: AA AA AA AA  returns 0x01 (0000ms, 0355ms total)
T139F8 000:810 JLINK_ReadMem (0x40006530, 0x0004 Bytes, ...) -- CPU_ReadMem(4 bytes @ 0x40006530) - Data: AA AA AA AA  returns 0x01 (0001ms, 0356ms total)
T139F8 000:811 JLINK_ReadMem (0x40006534, 0x0004 Bytes, ...) -- CPU_ReadMem(4 bytes @ 0x40006534) - Data: AA AA AA AA  returns 0x01 (0000ms, 0356ms total)
T139F8 000:812 JLINK_ReadMem (0x40006538, 0x0004 Bytes, ...) -- CPU_ReadMem(4 bytes @ 0x40006538) - Data: AA AA AA AA  returns 0x01 (0000ms, 0357ms total)
T139F8 000:812 JLINK_ReadMem (0x40006538, 0x0004 Bytes, ...) -- CPU_ReadMem(4 bytes @ 0x40006538) - Data: AA AA AA AA  returns 0x01 (0001ms, 0358ms total)
T139F8 000:849 JLINK_ReadMem (0x400073FC, 0x0004 Bytes, ...) -- CPU_ReadMem(4 bytes @ 0x400073FC) - Data: AA AA AA AA  returns 0x01 (0001ms, 0359ms total)
T139F8 000:850 JLINK_ReadMem (0x40007400, 0x0018 Bytes, ...) -- CPU_ReadMem(24 bytes @ 0x40007400) - Data: AA AA AA AA AA AA AA AA AA AA AA AA AA AA AA AA ...  returns 0x01 (0000ms, 0359ms total)
T139F8 000:850 JLINK_ReadMem (0x400073FC, 0x0004 Bytes, ...) -- CPU_ReadMem(4 bytes @ 0x400073FC) - Data: AA AA AA AA  returns 0x01 (0002ms, 0361ms total)
T139F8 000:852 JLINK_ReadMem (0x40007400, 0x0004 Bytes, ...) -- CPU_ReadMem(4 bytes @ 0x40007400) - Data: AA AA AA AA  returns 0x01 (0001ms, 0362ms total)
T139F8 000:853 JLINK_ReadMem (0x40007404, 0x0004 Bytes, ...) -- CPU_ReadMem(4 bytes @ 0x40007404) - Data: AA AA AA AA  returns 0x01 (0001ms, 0363ms total)
T139F8 000:854 JLINK_ReadMem (0x40007408, 0x0004 Bytes, ...) -- CPU_ReadMem(4 bytes @ 0x40007408) - Data: AA AA AA AA  returns 0x01 (0000ms, 0363ms total)
T139F8 000:854 JLINK_ReadMem (0x4000740C, 0x0004 Bytes, ...) -- CPU_ReadMem(4 bytes @ 0x4000740C) - Data: AA AA AA AA  returns 0x01 (0001ms, 0364ms total)
T139F8 000:855 JLINK_ReadMem (0x40007410, 0x0004 Bytes, ...) -- CPU_ReadMem(4 bytes @ 0x40007410) - Data: AA AA AA AA  returns 0x01 (0001ms, 0365ms total)
T139F8 000:856 JLINK_ReadMem (0x40007414, 0x0004 Bytes, ...) -- CPU_ReadMem(4 bytes @ 0x40007414) - Data: AA AA AA AA  returns 0x01 (0001ms, 0366ms total)
T139F8 000:857 JLINK_ReadMem (0x40007418, 0x0004 Bytes, ...) -- CPU_ReadMem(4 bytes @ 0x40007418) - Data: AA AA AA AA  returns 0x01 (0001ms, 0367ms total)
T139F8 000:858 JLINK_ReadMem (0x40007418, 0x0004 Bytes, ...) -- CPU_ReadMem(4 bytes @ 0x40007418) - Data: AA AA AA AA  returns 0x01 (0000ms, 0367ms total)
T139F8 000:858 JLINK_ReadMem (0x40007420, 0x0004 Bytes, ...) -- CPU_ReadMem(4 bytes @ 0x40007420) - Data: AA AA AA AA  returns 0x01 (0001ms, 0368ms total)
T139F8 000:859 JLINK_ReadMem (0x40007420, 0x0004 Bytes, ...) -- CPU_ReadMem(4 bytes @ 0x40007420) - Data: AA AA AA AA  returns 0x01 (0001ms, 0369ms total)
T139F8 000:860 JLINK_ReadMem (0x40007500, 0x0038 Bytes, ...) -- CPU_ReadMem(56 bytes @ 0x40007500) - Data: AA AA AA AA AA AA AA AA AA AA AA AA AA AA AA AA ...  returns 0x01 (0001ms, 0370ms total)
T139F8 000:861 JLINK_ReadMem (0x40007500, 0x0004 Bytes, ...) -- CPU_ReadMem(4 bytes @ 0x40007500) - Data: AA AA AA AA  returns 0x01 (0001ms, 0371ms total)
T139F8 000:862 JLINK_ReadMem (0x40007504, 0x0004 Bytes, ...) -- CPU_ReadMem(4 bytes @ 0x40007504) - Data: AA AA AA AA  returns 0x01 (0001ms, 0372ms total)
T139F8 000:863 JLINK_ReadMem (0x40007508, 0x0004 Bytes, ...) -- CPU_ReadMem(4 bytes @ 0x40007508) - Data: AA AA AA AA  returns 0x01 (0000ms, 0372ms total)
T139F8 000:863 JLINK_ReadMem (0x4000750C, 0x0004 Bytes, ...) -- CPU_ReadMem(4 bytes @ 0x4000750C) - Data: AA AA AA AA  returns 0x01 (0001ms, 0373ms total)
T139F8 000:864 JLINK_ReadMem (0x40007510, 0x0004 Bytes, ...) -- CPU_ReadMem(4 bytes @ 0x40007510) - Data: AA AA AA AA  returns 0x01 (0001ms, 0374ms total)
T139F8 000:865 JLINK_ReadMem (0x40007514, 0x0004 Bytes, ...) -- CPU_ReadMem(4 bytes @ 0x40007514) - Data: AA AA AA AA  returns 0x01 (0001ms, 0375ms total)
T139F8 000:866 JLINK_ReadMem (0x40007518, 0x0004 Bytes, ...) -- CPU_ReadMem(4 bytes @ 0x40007518) - Data: AA AA AA AA  returns 0x01 (0001ms, 0376ms total)
T139F8 000:867 JLINK_ReadMem (0x4000751C, 0x0004 Bytes, ...) -- CPU_ReadMem(4 bytes @ 0x4000751C) - Data: AA AA AA AA  returns 0x01 (0000ms, 0376ms total)
T139F8 000:867 JLINK_ReadMem (0x40007520, 0x0004 Bytes, ...) -- CPU_ReadMem(4 bytes @ 0x40007520) - Data: AA AA AA AA  returns 0x01 (0001ms, 0377ms total)
T139F8 000:868 JLINK_ReadMem (0x40007524, 0x0004 Bytes, ...) -- CPU_ReadMem(4 bytes @ 0x40007524) - Data: AA AA AA AA  returns 0x01 (0001ms, 0378ms total)
T139F8 000:869 JLINK_ReadMem (0x40007528, 0x0004 Bytes, ...) -- CPU_ReadMem(4 bytes @ 0x40007528) - Data: AA AA AA AA  returns 0x01 (0001ms, 0379ms total)
T139F8 000:870 JLINK_ReadMem (0x4000752C, 0x0004 Bytes, ...) -- CPU_ReadMem(4 bytes @ 0x4000752C) - Data: AA AA AA AA  returns 0x01 (0001ms, 0380ms total)
T139F8 000:871 JLINK_ReadMem (0x40007530, 0x0004 Bytes, ...) -- CPU_ReadMem(4 bytes @ 0x40007530) - Data: AA AA AA AA  returns 0x01 (0000ms, 0380ms total)
T139F8 000:871 JLINK_ReadMem (0x40007534, 0x0004 Bytes, ...) -- CPU_ReadMem(4 bytes @ 0x40007534) - Data: AA AA AA AA  returns 0x01 (0001ms, 0381ms total)
T139F8 000:872 JLINK_ReadMem (0x40007538, 0x0004 Bytes, ...) -- CPU_ReadMem(4 bytes @ 0x40007538) - Data: AA AA AA AA  returns 0x01 (0001ms, 0382ms total)
T139F8 000:873 JLINK_ReadMem (0x40007538, 0x0004 Bytes, ...) -- CPU_ReadMem(4 bytes @ 0x40007538) - Data: AA AA AA AA  returns 0x01 (0001ms, 0383ms total)
T139F8 000:909 JLINK_ReadMem (0x400243FC, 0x0004 Bytes, ...) -- CPU_ReadMem(4 bytes @ 0x400243FC) - Data: AA AA AA AA  returns 0x01 (0001ms, 0384ms total)
T139F8 000:910 JLINK_ReadMem (0x40024400, 0x0018 Bytes, ...) -- CPU_ReadMem(24 bytes @ 0x40024400) - Data: AA AA AA AA AA AA AA AA AA AA AA AA AA AA AA AA ...  returns 0x01 (0001ms, 0385ms total)
T139F8 000:911 JLINK_ReadMem (0x400243FC, 0x0004 Bytes, ...) -- CPU_ReadMem(4 bytes @ 0x400243FC) - Data: AA AA AA AA  returns 0x01 (0001ms, 0386ms total)
T139F8 000:912 JLINK_ReadMem (0x40024400, 0x0004 Bytes, ...) -- CPU_ReadMem(4 bytes @ 0x40024400) - Data: AA AA AA AA  returns 0x01 (0001ms, 0387ms total)
T139F8 000:913 JLINK_ReadMem (0x40024404, 0x0004 Bytes, ...) -- CPU_ReadMem(4 bytes @ 0x40024404) - Data: AA AA AA AA  returns 0x01 (0001ms, 0388ms total)
T139F8 000:914 JLINK_ReadMem (0x40024408, 0x0004 Bytes, ...) -- CPU_ReadMem(4 bytes @ 0x40024408) - Data: AA AA AA AA  returns 0x01 (0000ms, 0388ms total)
T139F8 000:914 JLINK_ReadMem (0x4002440C, 0x0004 Bytes, ...) -- CPU_ReadMem(4 bytes @ 0x4002440C) - Data: AA AA AA AA  returns 0x01 (0001ms, 0389ms total)
T139F8 000:915 JLINK_ReadMem (0x40024410, 0x0004 Bytes, ...) -- CPU_ReadMem(4 bytes @ 0x40024410) - Data: AA AA AA AA  returns 0x01 (0001ms, 0390ms total)
T139F8 000:916 JLINK_ReadMem (0x40024414, 0x0004 Bytes, ...) -- CPU_ReadMem(4 bytes @ 0x40024414) - Data: AA AA AA AA  returns 0x01 (0000ms, 0390ms total)
T139F8 000:916 JLINK_ReadMem (0x40024418, 0x0004 Bytes, ...) -- CPU_ReadMem(4 bytes @ 0x40024418) - Data: AA AA AA AA  returns 0x01 (0001ms, 0391ms total)
T139F8 000:917 JLINK_ReadMem (0x40024418, 0x0004 Bytes, ...) -- CPU_ReadMem(4 bytes @ 0x40024418) - Data: AA AA AA AA  returns 0x01 (0001ms, 0392ms total)
T139F8 000:918 JLINK_ReadMem (0x40024420, 0x0004 Bytes, ...) -- CPU_ReadMem(4 bytes @ 0x40024420) - Data: AA AA AA AA  returns 0x01 (0001ms, 0393ms total)
T139F8 000:919 JLINK_ReadMem (0x40024420, 0x0004 Bytes, ...) -- CPU_ReadMem(4 bytes @ 0x40024420) - Data: AA AA AA AA  returns 0x01 (0001ms, 0394ms total)
T139F8 000:920 JLINK_ReadMem (0x40024500, 0x0038 Bytes, ...) -- CPU_ReadMem(56 bytes @ 0x40024500) - Data: AA AA AA AA AA AA AA AA AA AA AA AA AA AA AA AA ...  returns 0x01 (0001ms, 0395ms total)
T139F8 000:921 JLINK_ReadMem (0x40024500, 0x0004 Bytes, ...) -- CPU_ReadMem(4 bytes @ 0x40024500) - Data: AA AA AA AA  returns 0x01 (0000ms, 0395ms total)
T139F8 000:921 JLINK_ReadMem (0x40024504, 0x0004 Bytes, ...) -- CPU_ReadMem(4 bytes @ 0x40024504) - Data: AA AA AA AA  returns 0x01 (0001ms, 0396ms total)
T139F8 000:922 JLINK_ReadMem (0x40024508, 0x0004 Bytes, ...) -- CPU_ReadMem(4 bytes @ 0x40024508) - Data: AA AA AA AA  returns 0x01 (0001ms, 0397ms total)
T139F8 000:923 JLINK_ReadMem (0x4002450C, 0x0004 Bytes, ...) -- CPU_ReadMem(4 bytes @ 0x4002450C) - Data: AA AA AA AA  returns 0x01 (0001ms, 0398ms total)
T139F8 000:924 JLINK_ReadMem (0x40024510, 0x0004 Bytes, ...) -- CPU_ReadMem(4 bytes @ 0x40024510) - Data: AA AA AA AA  returns 0x01 (0000ms, 0398ms total)
T139F8 000:924 JLINK_ReadMem (0x40024514, 0x0004 Bytes, ...) -- CPU_ReadMem(4 bytes @ 0x40024514) - Data: AA AA AA AA  returns 0x01 (0001ms, 0399ms total)
T139F8 000:925 JLINK_ReadMem (0x40024518, 0x0004 Bytes, ...) -- CPU_ReadMem(4 bytes @ 0x40024518) - Data: AA AA AA AA  returns 0x01 (0001ms, 0400ms total)
T139F8 000:926 JLINK_ReadMem (0x4002451C, 0x0004 Bytes, ...) -- CPU_ReadMem(4 bytes @ 0x4002451C) - Data: AA AA AA AA  returns 0x01 (0001ms, 0401ms total)
T139F8 000:927 JLINK_ReadMem (0x40024520, 0x0004 Bytes, ...) -- CPU_ReadMem(4 bytes @ 0x40024520) - Data: AA AA AA AA  returns 0x01 (0000ms, 0401ms total)
T139F8 000:927 JLINK_ReadMem (0x40024524, 0x0004 Bytes, ...) -- CPU_ReadMem(4 bytes @ 0x40024524) - Data: AA AA AA AA  returns 0x01 (0001ms, 0402ms total)
T139F8 000:928 JLINK_ReadMem (0x40024528, 0x0004 Bytes, ...) -- CPU_ReadMem(4 bytes @ 0x40024528) - Data: AA AA AA AA  returns 0x01 (0001ms, 0403ms total)
T139F8 000:929 JLINK_ReadMem (0x4002452C, 0x0004 Bytes, ...) -- CPU_ReadMem(4 bytes @ 0x4002452C) - Data: AA AA AA AA  returns 0x01 (0001ms, 0404ms total)
T139F8 000:930 JLINK_ReadMem (0x40024530, 0x0004 Bytes, ...) -- CPU_ReadMem(4 bytes @ 0x40024530) - Data: AA AA AA AA  returns 0x01 (0000ms, 0404ms total)
T139F8 000:930 JLINK_ReadMem (0x40024534, 0x0004 Bytes, ...) -- CPU_ReadMem(4 bytes @ 0x40024534) - Data: AA AA AA AA  returns 0x01 (0001ms, 0405ms total)
T139F8 000:931 JLINK_ReadMem (0x40024538, 0x0004 Bytes, ...) -- CPU_ReadMem(4 bytes @ 0x40024538) - Data: AA AA AA AA  returns 0x01 (0001ms, 0406ms total)
T139F8 000:932 JLINK_ReadMem (0x40024538, 0x0004 Bytes, ...) -- CPU_ReadMem(4 bytes @ 0x40024538) - Data: AA AA AA AA  returns 0x01 (0001ms, 0407ms total)
T139F8 000:970 JLINK_ReadMem (0x400253FC, 0x0004 Bytes, ...) -- CPU_ReadMem(4 bytes @ 0x400253FC) - Data: AA AA AA AA  returns 0x01 (0001ms, 0408ms total)
T139F8 000:971 JLINK_ReadMem (0x40025400, 0x0018 Bytes, ...) -- CPU_ReadMem(24 bytes @ 0x40025400) - Data: AA AA AA AA AA AA AA AA AA AA AA AA AA AA AA AA ...  returns 0x01 (0001ms, 0409ms total)
T139F8 000:972 JLINK_ReadMem (0x400253FC, 0x0004 Bytes, ...) -- CPU_ReadMem(4 bytes @ 0x400253FC) - Data: AA AA AA AA  returns 0x01 (0001ms, 0410ms total)
T139F8 000:973 JLINK_ReadMem (0x40025400, 0x0004 Bytes, ...) -- CPU_ReadMem(4 bytes @ 0x40025400) - Data: AA AA AA AA  returns 0x01 (0001ms, 0411ms total)
T139F8 000:974 JLINK_ReadMem (0x40025404, 0x0004 Bytes, ...) -- CPU_ReadMem(4 bytes @ 0x40025404) - Data: AA AA AA AA  returns 0x01 (0001ms, 0412ms total)
T139F8 000:975 JLINK_ReadMem (0x40025408, 0x0004 Bytes, ...) -- CPU_ReadMem(4 bytes @ 0x40025408) - Data: AA AA AA AA  returns 0x01 (0001ms, 0413ms total)
T139F8 000:976 JLINK_ReadMem (0x4002540C, 0x0004 Bytes, ...) -- CPU_ReadMem(4 bytes @ 0x4002540C) - Data: AA AA AA AA  returns 0x01 (0001ms, 0414ms total)
T139F8 000:977 JLINK_ReadMem (0x40025410, 0x0004 Bytes, ...) -- CPU_ReadMem(4 bytes @ 0x40025410) - Data: AA AA AA AA  returns 0x01 (0000ms, 0414ms total)
T139F8 000:977 JLINK_ReadMem (0x40025414, 0x0004 Bytes, ...) -- CPU_ReadMem(4 bytes @ 0x40025414) - Data: AA AA AA AA  returns 0x01 (0001ms, 0415ms total)
T139F8 000:978 JLINK_ReadMem (0x40025418, 0x0004 Bytes, ...) -- CPU_ReadMem(4 bytes @ 0x40025418) - Data: AA AA AA AA  returns 0x01 (0001ms, 0416ms total)
T139F8 000:979 JLINK_ReadMem (0x40025418, 0x0004 Bytes, ...) -- CPU_ReadMem(4 bytes @ 0x40025418) - Data: AA AA AA AA  returns 0x01 (0001ms, 0417ms total)
T139F8 000:980 JLINK_ReadMem (0x40025420, 0x0004 Bytes, ...) -- CPU_ReadMem(4 bytes @ 0x40025420) - Data: AA AA AA AA  returns 0x01 (0001ms, 0418ms total)
T139F8 000:981 JLINK_ReadMem (0x40025420, 0x0004 Bytes, ...) -- CPU_ReadMem(4 bytes @ 0x40025420) - Data: AA AA AA AA  returns 0x01 (0001ms, 0419ms total)
T139F8 000:982 JLINK_ReadMem (0x40025500, 0x0038 Bytes, ...) -- CPU_ReadMem(56 bytes @ 0x40025500) - Data: AA AA AA AA AA AA AA AA AA AA AA AA AA AA AA AA ...  returns 0x01 (0001ms, 0420ms total)
T139F8 000:983 JLINK_ReadMem (0x40025500, 0x0004 Bytes, ...) -- CPU_ReadMem(4 bytes @ 0x40025500) - Data: AA AA AA AA  returns 0x01 (0001ms, 0421ms total)
T139F8 000:984 JLINK_ReadMem (0x40025504, 0x0004 Bytes, ...) -- CPU_ReadMem(4 bytes @ 0x40025504) - Data: AA AA AA AA  returns 0x01 (0001ms, 0422ms total)
T139F8 000:985 JLINK_ReadMem (0x40025508, 0x0004 Bytes, ...) -- CPU_ReadMem(4 bytes @ 0x40025508) - Data: AA AA AA AA  returns 0x01 (0001ms, 0423ms total)
T139F8 000:986 JLINK_ReadMem (0x4002550C, 0x0004 Bytes, ...) -- CPU_ReadMem(4 bytes @ 0x4002550C) - Data: AA AA AA AA  returns 0x01 (0001ms, 0424ms total)
T139F8 000:987 JLINK_ReadMem (0x40025510, 0x0004 Bytes, ...) -- CPU_ReadMem(4 bytes @ 0x40025510) - Data: AA AA AA AA  returns 0x01 (0000ms, 0424ms total)
T139F8 000:987 JLINK_ReadMem (0x40025514, 0x0004 Bytes, ...) -- CPU_ReadMem(4 bytes @ 0x40025514) - Data: AA AA AA AA  returns 0x01 (0001ms, 0425ms total)
T139F8 000:988 JLINK_ReadMem (0x40025518, 0x0004 Bytes, ...) -- CPU_ReadMem(4 bytes @ 0x40025518) - Data: AA AA AA AA  returns 0x01 (0001ms, 0426ms total)
T139F8 000:989 JLINK_ReadMem (0x4002551C, 0x0004 Bytes, ...) -- CPU_ReadMem(4 bytes @ 0x4002551C) - Data: AA AA AA AA  returns 0x01 (0001ms, 0427ms total)
T139F8 000:990 JLINK_ReadMem (0x40025520, 0x0004 Bytes, ...) -- CPU_ReadMem(4 bytes @ 0x40025520) - Data: AA AA AA AA  returns 0x01 (0001ms, 0428ms total)
T139F8 000:991 JLINK_ReadMem (0x40025524, 0x0004 Bytes, ...) -- CPU_ReadMem(4 bytes @ 0x40025524) - Data: AA AA AA AA  returns 0x01 (0001ms, 0429ms total)
T139F8 000:992 JLINK_ReadMem (0x40025528, 0x0004 Bytes, ...) -- CPU_ReadMem(4 bytes @ 0x40025528) - Data: AA AA AA AA  returns 0x01 (0000ms, 0429ms total)
T139F8 000:992 JLINK_ReadMem (0x4002552C, 0x0004 Bytes, ...) -- CPU_ReadMem(4 bytes @ 0x4002552C) - Data: AA AA AA AA  returns 0x01 (0001ms, 0430ms total)
T139F8 000:993 JLINK_ReadMem (0x40025530, 0x0004 Bytes, ...) -- CPU_ReadMem(4 bytes @ 0x40025530) - Data: AA AA AA AA  returns 0x01 (0001ms, 0431ms total)
T139F8 000:994 JLINK_ReadMem (0x40025534, 0x0004 Bytes, ...) -- CPU_ReadMem(4 bytes @ 0x40025534) - Data: AA AA AA AA  returns 0x01 (0001ms, 0432ms total)
T139F8 000:995 JLINK_ReadMem (0x40025538, 0x0004 Bytes, ...) -- CPU_ReadMem(4 bytes @ 0x40025538) - Data: AA AA AA AA  returns 0x01 (0000ms, 0432ms total)
T139F8 000:995 JLINK_ReadMem (0x40025538, 0x0004 Bytes, ...) -- CPU_ReadMem(4 bytes @ 0x40025538) - Data: AA AA AA AA  returns 0x01 (0001ms, 0433ms total)
T139F8 001:035 JLINK_ReadMem (0x400263FC, 0x0004 Bytes, ...) -- CPU_ReadMem(4 bytes @ 0x400263FC) - Data: AA AA AA AA  returns 0x01 (0001ms, 0434ms total)
T139F8 001:036 JLINK_ReadMem (0x40026400, 0x0018 Bytes, ...) -- CPU_ReadMem(24 bytes @ 0x40026400) - Data: AA AA AA AA AA AA AA AA AA AA AA AA AA AA AA AA ...  returns 0x01 (0000ms, 0434ms total)
T139F8 001:036 JLINK_ReadMem (0x400263FC, 0x0004 Bytes, ...) -- CPU_ReadMem(4 bytes @ 0x400263FC) - Data: AA AA AA AA  returns 0x01 (0001ms, 0435ms total)
T139F8 001:037 JLINK_ReadMem (0x40026400, 0x0004 Bytes, ...) -- CPU_ReadMem(4 bytes @ 0x40026400) - Data: AA AA AA AA  returns 0x01 (0001ms, 0436ms total)
T139F8 001:038 JLINK_ReadMem (0x40026404, 0x0004 Bytes, ...) -- CPU_ReadMem(4 bytes @ 0x40026404) - Data: AA AA AA AA  returns 0x01 (0001ms, 0437ms total)
T139F8 001:039 JLINK_ReadMem (0x40026408, 0x0004 Bytes, ...) -- CPU_ReadMem(4 bytes @ 0x40026408) - Data: AA AA AA AA  returns 0x01 (0000ms, 0437ms total)
T139F8 001:039 JLINK_ReadMem (0x4002640C, 0x0004 Bytes, ...) -- CPU_ReadMem(4 bytes @ 0x4002640C) - Data: AA AA AA AA  returns 0x01 (0001ms, 0438ms total)
T139F8 001:040 JLINK_ReadMem (0x40026410, 0x0004 Bytes, ...) -- CPU_ReadMem(4 bytes @ 0x40026410) - Data: AA AA AA AA  returns 0x01 (0001ms, 0439ms total)
T139F8 001:041 JLINK_ReadMem (0x40026414, 0x0004 Bytes, ...) -- CPU_ReadMem(4 bytes @ 0x40026414) - Data: AA AA AA AA  returns 0x01 (0001ms, 0440ms total)
T139F8 001:042 JLINK_ReadMem (0x40026418, 0x0004 Bytes, ...) -- CPU_ReadMem(4 bytes @ 0x40026418) - Data: AA AA AA AA  returns 0x01 (0000ms, 0440ms total)
T139F8 001:043 JLINK_ReadMem (0x40026418, 0x0004 Bytes, ...) -- CPU_ReadMem(4 bytes @ 0x40026418) - Data: AA AA AA AA  returns 0x01 (0000ms, 0441ms total)
T139F8 001:043 JLINK_ReadMem (0x40026420, 0x0004 Bytes, ...) -- CPU_ReadMem(4 bytes @ 0x40026420) - Data: AA AA AA AA  returns 0x01 (0001ms, 0442ms total)
T139F8 001:044 JLINK_ReadMem (0x40026420, 0x0004 Bytes, ...) -- CPU_ReadMem(4 bytes @ 0x40026420) - Data: AA AA AA AA  returns 0x01 (0001ms, 0443ms total)
T139F8 001:045 JLINK_ReadMem (0x40026500, 0x0038 Bytes, ...) -- CPU_ReadMem(56 bytes @ 0x40026500) - Data: AA AA AA AA AA AA AA AA AA AA AA AA AA AA AA AA ...  returns 0x01 (0001ms, 0444ms total)
T139F8 001:046 JLINK_ReadMem (0x40026500, 0x0004 Bytes, ...) -- CPU_ReadMem(4 bytes @ 0x40026500) - Data: AA AA AA AA  returns 0x01 (0001ms, 0445ms total)
T139F8 001:047 JLINK_ReadMem (0x40026504, 0x0004 Bytes, ...) -- CPU_ReadMem(4 bytes @ 0x40026504) - Data: AA AA AA AA  returns 0x01 (0000ms, 0445ms total)
T139F8 001:047 JLINK_ReadMem (0x40026508, 0x0004 Bytes, ...) -- CPU_ReadMem(4 bytes @ 0x40026508) - Data: AA AA AA AA  returns 0x01 (0001ms, 0446ms total)
T139F8 001:048 JLINK_ReadMem (0x4002650C, 0x0004 Bytes, ...) -- CPU_ReadMem(4 bytes @ 0x4002650C) - Data: AA AA AA AA  returns 0x01 (0001ms, 0447ms total)
T139F8 001:049 JLINK_ReadMem (0x40026510, 0x0004 Bytes, ...) -- CPU_ReadMem(4 bytes @ 0x40026510) - Data: AA AA AA AA  returns 0x01 (0001ms, 0448ms total)
T139F8 001:050 JLINK_ReadMem (0x40026514, 0x0004 Bytes, ...) -- CPU_ReadMem(4 bytes @ 0x40026514) - Data: AA AA AA AA  returns 0x01 (0000ms, 0448ms total)
T139F8 001:050 JLINK_ReadMem (0x40026518, 0x0004 Bytes, ...) -- CPU_ReadMem(4 bytes @ 0x40026518) - Data: AA AA AA AA  returns 0x01 (0001ms, 0449ms total)
T139F8 001:051 JLINK_ReadMem (0x4002651C, 0x0004 Bytes, ...) -- CPU_ReadMem(4 bytes @ 0x4002651C) - Data: AA AA AA AA  returns 0x01 (0001ms, 0450ms total)
T139F8 001:052 JLINK_ReadMem (0x40026520, 0x0004 Bytes, ...) -- CPU_ReadMem(4 bytes @ 0x40026520) - Data: AA AA AA AA  returns 0x01 (0000ms, 0450ms total)
T139F8 001:052 JLINK_ReadMem (0x40026524, 0x0004 Bytes, ...) -- CPU_ReadMem(4 bytes @ 0x40026524) - Data: AA AA AA AA  returns 0x01 (0001ms, 0451ms total)
T139F8 001:053 JLINK_ReadMem (0x40026528, 0x0004 Bytes, ...) -- CPU_ReadMem(4 bytes @ 0x40026528) - Data: AA AA AA AA  returns 0x01 (0001ms, 0452ms total)
T139F8 001:054 JLINK_ReadMem (0x4002652C, 0x0004 Bytes, ...) -- CPU_ReadMem(4 bytes @ 0x4002652C) - Data: AA AA AA AA  returns 0x01 (0000ms, 0452ms total)
T139F8 001:054 JLINK_ReadMem (0x40026530, 0x0004 Bytes, ...) -- CPU_ReadMem(4 bytes @ 0x40026530) - Data: AA AA AA AA  returns 0x01 (0001ms, 0453ms total)
T139F8 001:055 JLINK_ReadMem (0x40026534, 0x0004 Bytes, ...) -- CPU_ReadMem(4 bytes @ 0x40026534) - Data: AA AA AA AA  returns 0x01 (0001ms, 0454ms total)
T139F8 001:056 JLINK_ReadMem (0x40026538, 0x0004 Bytes, ...) -- CPU_ReadMem(4 bytes @ 0x40026538) - Data: AA AA AA AA  returns 0x01 (0001ms, 0455ms total)
T139F8 001:057 JLINK_ReadMem (0x40026538, 0x0004 Bytes, ...) -- CPU_ReadMem(4 bytes @ 0x40026538) - Data: AA AA AA AA  returns 0x01 (0001ms, 0456ms total)
T139F8 001:094 JLINK_ReadMem (0x400273FC, 0x0004 Bytes, ...) -- CPU_ReadMem(4 bytes @ 0x400273FC) - Data: AA AA AA AA  returns 0x01 (0001ms, 0457ms total)
T139F8 001:095 JLINK_ReadMem (0x40027400, 0x0018 Bytes, ...) -- CPU_ReadMem(24 bytes @ 0x40027400) - Data: AA AA AA AA AA AA AA AA AA AA AA AA AA AA AA AA ...  returns 0x01 (0001ms, 0458ms total)
T139F8 001:096 JLINK_ReadMem (0x400273FC, 0x0004 Bytes, ...) -- CPU_ReadMem(4 bytes @ 0x400273FC) - Data: AA AA AA AA  returns 0x01 (0001ms, 0459ms total)
T139F8 001:097 JLINK_ReadMem (0x40027400, 0x0004 Bytes, ...) -- CPU_ReadMem(4 bytes @ 0x40027400) - Data: AA AA AA AA  returns 0x01 (0001ms, 0460ms total)
T139F8 001:098 JLINK_ReadMem (0x40027404, 0x0004 Bytes, ...) -- CPU_ReadMem(4 bytes @ 0x40027404) - Data: AA AA AA AA  returns 0x01 (0000ms, 0460ms total)
T139F8 001:098 JLINK_ReadMem (0x40027408, 0x0004 Bytes, ...) -- CPU_ReadMem(4 bytes @ 0x40027408) - Data: AA AA AA AA  returns 0x01 (0001ms, 0461ms total)
T139F8 001:099 JLINK_ReadMem (0x4002740C, 0x0004 Bytes, ...) -- CPU_ReadMem(4 bytes @ 0x4002740C) - Data: AA AA AA AA  returns 0x01 (0001ms, 0462ms total)
T139F8 001:100 JLINK_ReadMem (0x40027410, 0x0004 Bytes, ...) -- CPU_ReadMem(4 bytes @ 0x40027410) - Data: AA AA AA AA  returns 0x01 (0001ms, 0463ms total)
T139F8 001:101 JLINK_ReadMem (0x40027414, 0x0004 Bytes, ...) -- CPU_ReadMem(4 bytes @ 0x40027414) - Data: AA AA AA AA  returns 0x01 (0000ms, 0463ms total)
T139F8 001:101 JLINK_ReadMem (0x40027418, 0x0004 Bytes, ...) -- CPU_ReadMem(4 bytes @ 0x40027418) - Data: AA AA AA AA  returns 0x01 (0001ms, 0464ms total)
T139F8 001:102 JLINK_ReadMem (0x40027418, 0x0004 Bytes, ...) -- CPU_ReadMem(4 bytes @ 0x40027418) - Data: AA AA AA AA  returns 0x01 (0001ms, 0465ms total)
T139F8 001:103 JLINK_ReadMem (0x40027420, 0x0004 Bytes, ...) -- CPU_ReadMem(4 bytes @ 0x40027420) - Data: AA AA AA AA  returns 0x01 (0001ms, 0466ms total)
T139F8 001:104 JLINK_ReadMem (0x40027420, 0x0004 Bytes, ...) -- CPU_ReadMem(4 bytes @ 0x40027420) - Data: AA AA AA AA  returns 0x01 (0000ms, 0466ms total)
T139F8 001:104 JLINK_ReadMem (0x40027500, 0x0038 Bytes, ...) -- CPU_ReadMem(56 bytes @ 0x40027500) - Data: AA AA AA AA AA AA AA AA AA AA AA AA AA AA AA AA ...  returns 0x01 (0001ms, 0467ms total)
T139F8 001:105 JLINK_ReadMem (0x40027500, 0x0004 Bytes, ...) -- CPU_ReadMem(4 bytes @ 0x40027500) - Data: AA AA AA AA  returns 0x01 (0001ms, 0468ms total)
T139F8 001:106 JLINK_ReadMem (0x40027504, 0x0004 Bytes, ...) -- CPU_ReadMem(4 bytes @ 0x40027504) - Data: AA AA AA AA  returns 0x01 (0001ms, 0469ms total)
T139F8 001:107 JLINK_ReadMem (0x40027508, 0x0004 Bytes, ...) -- CPU_ReadMem(4 bytes @ 0x40027508) - Data: AA AA AA AA  returns 0x01 (0001ms, 0470ms total)
T139F8 001:108 JLINK_ReadMem (0x4002750C, 0x0004 Bytes, ...) -- CPU_ReadMem(4 bytes @ 0x4002750C) - Data: AA AA AA AA  returns 0x01 (0000ms, 0470ms total)
T139F8 001:108 JLINK_ReadMem (0x40027510, 0x0004 Bytes, ...) -- CPU_ReadMem(4 bytes @ 0x40027510) - Data: AA AA AA AA  returns 0x01 (0001ms, 0471ms total)
T139F8 001:109 JLINK_ReadMem (0x40027514, 0x0004 Bytes, ...) -- CPU_ReadMem(4 bytes @ 0x40027514) - Data: AA AA AA AA  returns 0x01 (0001ms, 0472ms total)
T139F8 001:110 JLINK_ReadMem (0x40027518, 0x0004 Bytes, ...) -- CPU_ReadMem(4 bytes @ 0x40027518) - Data: AA AA AA AA  returns 0x01 (0001ms, 0473ms total)
T139F8 001:111 JLINK_ReadMem (0x4002751C, 0x0004 Bytes, ...) -- CPU_ReadMem(4 bytes @ 0x4002751C) - Data: AA AA AA AA  returns 0x01 (0001ms, 0474ms total)
T139F8 001:112 JLINK_ReadMem (0x40027520, 0x0004 Bytes, ...) -- CPU_ReadMem(4 bytes @ 0x40027520) - Data: AA AA AA AA  returns 0x01 (0000ms, 0474ms total)
T139F8 001:112 JLINK_ReadMem (0x40027524, 0x0004 Bytes, ...) -- CPU_ReadMem(4 bytes @ 0x40027524) - Data: AA AA AA AA  returns 0x01 (0001ms, 0475ms total)
T139F8 001:113 JLINK_ReadMem (0x40027528, 0x0004 Bytes, ...) -- CPU_ReadMem(4 bytes @ 0x40027528) - Data: AA AA AA AA  returns 0x01 (0001ms, 0476ms total)
T139F8 001:114 JLINK_ReadMem (0x4002752C, 0x0004 Bytes, ...) -- CPU_ReadMem(4 bytes @ 0x4002752C) - Data: AA AA AA AA  returns 0x01 (0001ms, 0477ms total)
T139F8 001:115 JLINK_ReadMem (0x40027530, 0x0004 Bytes, ...) -- CPU_ReadMem(4 bytes @ 0x40027530) - Data: AA AA AA AA  returns 0x01 (0000ms, 0477ms total)
T139F8 001:115 JLINK_ReadMem (0x40027534, 0x0004 Bytes, ...) -- CPU_ReadMem(4 bytes @ 0x40027534) - Data: AA AA AA AA  returns 0x01 (0001ms, 0478ms total)
T139F8 001:116 JLINK_ReadMem (0x40027538, 0x0004 Bytes, ...) -- CPU_ReadMem(4 bytes @ 0x40027538) - Data: AA AA AA AA  returns 0x01 (0001ms, 0479ms total)
T139F8 001:117 JLINK_ReadMem (0x40027538, 0x0004 Bytes, ...) -- CPU_ReadMem(4 bytes @ 0x40027538) - Data: AA AA AA AA  returns 0x01 (0001ms, 0480ms total)
T139F8 001:155 JLINK_ReadMem (0x4003D3FC, 0x0004 Bytes, ...) -- CPU_ReadMem(4 bytes @ 0x4003D3FC) - Data: AA AA AA AA  returns 0x01 (0001ms, 0481ms total)
T139F8 001:156 JLINK_ReadMem (0x4003D400, 0x0018 Bytes, ...) -- CPU_ReadMem(24 bytes @ 0x4003D400) - Data: AA AA AA AA AA AA AA AA AA AA AA AA AA AA AA AA ...  returns 0x01 (0001ms, 0482ms total)
T139F8 001:157 JLINK_ReadMem (0x4003D3FC, 0x0004 Bytes, ...) -- CPU_ReadMem(4 bytes @ 0x4003D3FC) - Data: AA AA AA AA  returns 0x01 (0001ms, 0483ms total)
T139F8 001:158 JLINK_ReadMem (0x4003D400, 0x0004 Bytes, ...) -- CPU_ReadMem(4 bytes @ 0x4003D400) - Data: AA AA AA AA  returns 0x01 (0000ms, 0483ms total)
T139F8 001:158 JLINK_ReadMem (0x4003D404, 0x0004 Bytes, ...) -- CPU_ReadMem(4 bytes @ 0x4003D404) - Data: AA AA AA AA  returns 0x01 (0001ms, 0484ms total)
T139F8 001:159 JLINK_ReadMem (0x4003D408, 0x0004 Bytes, ...) -- CPU_ReadMem(4 bytes @ 0x4003D408) - Data: AA AA AA AA  returns 0x01 (0001ms, 0485ms total)
T139F8 001:160 JLINK_ReadMem (0x4003D40C, 0x0004 Bytes, ...) -- CPU_ReadMem(4 bytes @ 0x4003D40C) - Data: AA AA AA AA  returns 0x01 (0001ms, 0486ms total)
T139F8 001:161 JLINK_ReadMem (0x4003D410, 0x0004 Bytes, ...) -- CPU_ReadMem(4 bytes @ 0x4003D410) - Data: AA AA AA AA  returns 0x01 (0001ms, 0487ms total)
T139F8 001:162 JLINK_ReadMem (0x4003D414, 0x0004 Bytes, ...) -- CPU_ReadMem(4 bytes @ 0x4003D414) - Data: AA AA AA AA  returns 0x01 (0000ms, 0487ms total)
T139F8 001:162 JLINK_ReadMem (0x4003D418, 0x0004 Bytes, ...) -- CPU_ReadMem(4 bytes @ 0x4003D418) - Data: AA AA AA AA  returns 0x01 (0001ms, 0488ms total)
T139F8 001:163 JLINK_ReadMem (0x4003D418, 0x0004 Bytes, ...) -- CPU_ReadMem(4 bytes @ 0x4003D418) - Data: AA AA AA AA  returns 0x01 (0001ms, 0489ms total)
T139F8 001:164 JLINK_ReadMem (0x4003D420, 0x0004 Bytes, ...) -- CPU_ReadMem(4 bytes @ 0x4003D420) - Data: AA AA AA AA  returns 0x01 (0000ms, 0489ms total)
T139F8 001:164 JLINK_ReadMem (0x4003D420, 0x0004 Bytes, ...) -- CPU_ReadMem(4 bytes @ 0x4003D420) - Data: AA AA AA AA  returns 0x01 (0001ms, 0490ms total)
T139F8 001:165 JLINK_ReadMem (0x4003D500, 0x0038 Bytes, ...) -- CPU_ReadMem(56 bytes @ 0x4003D500) - Data: AA AA AA AA AA AA AA AA AA AA AA AA AA AA AA AA ...  returns 0x01 (0001ms, 0491ms total)
T139F8 001:166 JLINK_ReadMem (0x4003D500, 0x0004 Bytes, ...) -- CPU_ReadMem(4 bytes @ 0x4003D500) - Data: AA AA AA AA  returns 0x01 (0001ms, 0492ms total)
T139F8 001:167 JLINK_ReadMem (0x4003D504, 0x0004 Bytes, ...) -- CPU_ReadMem(4 bytes @ 0x4003D504) - Data: AA AA AA AA  returns 0x01 (0001ms, 0493ms total)
